! VERSION = 6.00
BEGIN_HEADER
 ICCAP_INPUTS
  freq       F  LIN        1    5e+007     2.01e+010  402  5e+007    
 ICCAP_OUTPUTS
  s          S  DEFAULT DEFAULT GROUND NWA M
  L11        U
  R11        U
  Q11        U
  L22        U
  R22        U
  Q22        U
  M12        U
  Ldiff      U
END_HEADER

BEGIN_DB

 #freq            R:s(1,1)        I:s(1,1)        R:s(1,2)        I:s(1,2)        R:s(2,1)        I:s(2,1)        R:s(2,2)        I:s(2,2)        R:L11(1,1)      I:L11(1,1)      R:R11(1,1)      I:R11(1,1)      R:Q11(1,1)      I:Q11(1,1)      R:L22(1,1)      I:L22(1,1)      R:R22(1,1)      I:R22(1,1)      R:Q22(1,1)      I:Q22(1,1)      R:M12(1,1)      I:M12(1,1)      R:Ldiff(1,1)    I:Ldiff(1,1)   
  5e+007          0.0177559       0.00295433      0.982226        -0.0104666      0.981974        -0.0103451      0.0178145       0.00306974      2.21327e-009    0               491.708         0               -25.7182        0               2.21398e-009    0               491.708         0               -25.637         0               -1.00016        0               2.21455e-009    0              
  1e+008          0.0191827       0.00500327      0.980936        -0.0190383      0.980757        -0.0194939      0.0191558       0.00506956      2.00987e-009    0               -87.4822        0               80.0741         0               2.01106e-009    0               -87.4822        0               80.4531         0               -1.00018        0               2.00954e-009    0              
  1.5e+008        0.0202163       0.0065854       0.979439        -0.0280789      0.979453        -0.028524       0.0203233       0.00667429      1.93038e-009    0               6.2406          0               -720.082        0               1.93115e-009    0               6.2406          0               -676.655        0               -1.00019        0               1.93039e-009    0              
  2e+008          0.0212286       0.00772744      0.978358        -0.0369089      0.978353        -0.0373613      0.02123         0.0077766       1.8641e-009     0               1.31312         0               -2485.63        0               1.8644e-009     0               1.31312         0               -2226.31        0               -1.00035        0               1.86394e-009    0              
  2.5e+008        0.0219428       0.00897099      0.977359        -0.0456596      0.977372        -0.0461781      0.0220686       0.00904289      1.8275e-009     0               -16.5551        0               156.018         0               1.82757e-009    0               -16.5551        0               157.969         0               -1.00054        0               1.82733e-009    0              
  3e+008          0.0227105       0.00998962      0.976385        -0.0544032      0.976337        -0.0549637      0.0227702       0.00999307      1.796e-009      0               -4.8951         0               430.267         0               1.79561e-009    0               -4.8951         0               429.982         0               -1.00081        0               1.79556e-009    0              
  3.5e+008        0.0234626       0.0111635       0.975176        -0.0632488      0.975126        -0.0637071      0.0234205       0.0111617       1.7796e-009     0               4.4923          0               -401.542        0               1.77856e-009    0               4.4923          0               -404.897        0               -1.00109        0               1.77887e-009    0              
  4e+008          0.0243103       0.0121925       0.974088        -0.0717838      0.97416         -0.0722704      0.0242543       0.0121262       1.75904e-009    0               -10.7192        0               145.85          0               1.75731e-009    0               -10.7192        0               144.143         0               -1.00136        0               1.75802e-009    0              
  4.5e+008        0.0250324       0.0133252       0.972635        -0.0806169      0.9728          -0.0808684      0.0250817       0.0131268       1.74838e-009    0               -7.42692        0               185.534         0               1.74591e-009    0               -7.42692        0               179.032         0               -1.0017         0               1.74716e-009    0              
  5e+008          0.0258224       0.0142142       0.971303        -0.0891523      0.971326        -0.0895336      0.0257779       0.0141942       1.73695e-009    0               -4.40554        0               281.152         0               1.73398e-009    0               -4.40554        0               277.939         0               -1.00217        0               1.73538e-009    0              
  5.5e+008        0.0267402       0.0152414       0.969853        -0.0976636      0.969774        -0.0982726      0.026618        0.0152296       1.72969e-009    0               -1.65762        0               678.414         0               1.72607e-009    0               -1.65762        0               656.338         0               -1.00266        0               1.72766e-009    0              
  6e+008          0.0275139       0.016096        0.968312        -0.106128       0.968383        -0.106633       0.0274791       0.0160541       1.71817e-009    0               -3.41658        0               300.004         0               1.71366e-009    0               -3.41658        0               294.687         0               -1.00309        0               1.71584e-009    0              
  6.5e+008        0.0285182       0.0169662       0.966731        -0.114768       0.966635        -0.115264       0.0284228       0.016947        1.71292e-009    0               -3.21712        0               292.847         0               1.70763e-009    0               -3.21712        0               288.911         0               -1.00373        0               1.71011e-009    0              
  7e+008          0.0293743       0.0178585       0.964918        -0.123115       0.964827        -0.123591       0.0293521       0.0178137       1.70525e-009    0               0.37074         0               -2354.32        0               1.69911e-009    0               0.37074         0               -2761.63        0               -1.0043         0               1.70205e-009    0              
  7.5e+008        0.0303943       0.0187271       0.963091        -0.131548       0.963013        -0.131944       0.0302897       0.0186576       1.69966e-009    0               0.253783        0               -3208.71        0               1.69243e-009    0               0.253783        0               -4953.49        0               -1.00492        0               1.6959e-009     0              
  8e+008          0.031341        0.019425        0.961105        -0.139781       0.960994        -0.140271       0.0313057       0.0193195       1.69231e-009    0               -0.527129       0               1443.45         0               1.68416e-009    0               -0.527129       0               1219.64         0               -1.00559        0               1.6881e-009     0              
  8.5e+008        0.0323705       0.0202699       0.959042        -0.148174       0.959046        -0.148437       0.0323043       0.0202032       1.68812e-009    0               1.64544         0               -435.675        0               1.67873e-009    0               1.64544         0               -459.102        0               -1.00625        0               1.68335e-009    0              
  9e+008          0.0334894       0.0209201       0.95691         -0.156254       0.956974        -0.156658       0.0333405       0.0208734       1.68198e-009    0               1.18504         0               -571.275        0               1.67136e-009    0               1.18504         0               -611.088        0               -1.00694        0               1.67657e-009    0              
  9.5e+008        0.0345229       0.0215437       0.954708        -0.164416       0.954774        -0.164792       0.0343295       0.0215069       1.67659e-009    0               1.85822         0               -343.68         0               1.6647e-009     0               1.85822         0               -359.185        0               -1.00774        0               1.67053e-009    0              
  1e+009          0.0356986       0.0220858       0.952618        -0.172373       0.952419        -0.17292        0.0354864       0.0221065       1.67093e-009    0               1.31089         0               -462.748        0               1.65807e-009    0               1.31089         0               -473.374        0               -1.00868        0               1.66425e-009    0              
  1.05e+009       0.0367012       0.0225995       0.950236        -0.180483       0.9503          -0.180925       0.0365614       0.0226838       1.66584e-009    0               0.680618        0               -847.037        0               1.65146e-009    0               0.680618        0               -828.809        0               -1.00941        0               1.65856e-009    0              
  1.1e+009        0.0378997       0.0231614       0.947752        -0.188398       0.947906        -0.1888         0.0377091       0.0231522       1.66066e-009    0               1.34242         0               -409.588        0               1.64484e-009    0               1.34242         0               -421.445        0               -1.01027        0               1.65268e-009    0              
  1.15e+009       0.0389354       0.0235534       0.945173        -0.19628        0.945321        -0.196718       0.0388142       0.0236593       1.65579e-009    0               2.42154         0               -216.863        0               1.63864e-009    0               2.42154         0               -215.477        0               -1.01121        0               1.64717e-009    0              
  1.2e+009        0.0401506       0.0239196       0.942734        -0.204092       0.94285         -0.204526       0.0399841       0.0240237       1.6505e-009     0               1.99891         0               -251.526        0               1.63189e-009    0               1.99891         0               -250.947        0               -1.0122         0               1.64111e-009    0              
  1.25e+009       0.0412675       0.0242876       0.940302        -0.211964       0.940268        -0.212262       0.0412154       0.0244004       1.64582e-009    0               1.26683         0               -381.136        0               1.62594e-009    0               1.26683         0               -372.804        0               -1.01329        0               1.63577e-009    0              
  1.3e+009        0.0425658       0.0246081       0.937629        -0.219591       0.93754         -0.220046       0.0423849       0.0246586       1.64128e-009    0               1.04945         0               -441.239        0               1.61977e-009    0               1.04945         0               -448.989        0               -1.01437        0               1.63032e-009    0              
  1.35e+009       0.0436095       0.0248989       0.93484         -0.227306       0.93481         -0.227691       0.0434191       0.0248653       1.63655e-009    0               2.17011         0               -205.356        0               1.61345e-009    0               2.17011         0               -211.208        0               -1.01543        0               1.62481e-009    0              
  1.4e+009        0.0448542       0.0250313       0.932028        -0.234716       0.931994        -0.235259       0.0446542       0.0252052       1.63166e-009    0               2.03862         0               -210.604        0               1.60695e-009    0               2.03862         0               -206.85         0               -1.01654        0               1.6191e-009     0              
  1.45e+009       0.0459578       0.0252019       0.929222        -0.242348       0.929168        -0.242809       0.0457098       0.0253661       1.62734e-009    0               2.0158          0               -205.149        0               1.6009e-009     0               2.0158          0               -202.357        0               -1.01775        0               1.61388e-009    0              
  1.5e+009        0.0471526       0.0253982       0.926326        -0.249832       0.926289        -0.250306       0.0469637       0.0254246       1.62301e-009    0               2.09303         0               -190.841        0               1.59489e-009    0               2.09303         0               -193.618        0               -1.01893        0               1.60873e-009    0              
  1.55e+009       0.0482459       0.0255071       0.923336        -0.257203       0.923462        -0.257694       0.0480174       0.0255201       1.61834e-009    0               2.246           0               -171.924        0               1.58831e-009    0               2.246           0               -174.669        0               -1.02009        0               1.60314e-009    0              
  1.6e+009        0.0493813       0.0254188       0.920469        -0.264563       0.920346        -0.264972       0.0490966       0.0255712       1.61346e-009    0               2.20263         0               -169.568        0               1.5818e-009     0               2.20263         0               -168.079        0               -1.0215         0               1.59731e-009    0              
  1.65e+009       0.0505547       0.0255293       0.917384        -0.271913       0.917176        -0.27233        0.0502221       0.0256066       1.61004e-009    0               2.63646         0               -137.186        0               1.57654e-009    0               2.63646         0               -138.635        0               -1.02288        0               1.59289e-009    0              
  1.7e+009        0.0516517       0.0255568       0.914368        -0.279183       0.914277        -0.279594       0.0514575       0.0255397       1.60572e-009    0               2.12611         0               -164.975        0               1.57036e-009    0               2.12611         0               -168.352        0               -1.02416        0               1.58774e-009    0              
  1.75e+009       0.0527297       0.0255388       0.911234        -0.286254       0.911229        -0.286671       0.0524431       0.0255767       1.60126e-009    0               2.54778         0               -133.745        0               1.56389e-009    0               2.54778         0               -135.857        0               -1.02546        0               1.58224e-009    0              
  1.8e+009        0.0538627       0.0254341       0.907987        -0.293453       0.908003        -0.293909       0.0534966       0.0255441       1.59795e-009    0               2.64724         0               -124.898        0               1.55848e-009    0               2.64724         0               -126.209        0               -1.02691        0               1.57782e-009    0              
  1.85e+009       0.054852        0.0253862       0.904861        -0.300513       0.904789        -0.301038       0.0545656       0.0255746       1.59434e-009    0               2.85564         0               -112.574        0               1.55299e-009    0               2.85564         0               -112.575        0               -1.02839        0               1.57325e-009    0              
  1.9e+009        0.0561219       0.025288        0.901755        -0.307419       0.901581        -0.307997       0.0555888       0.0254422       1.59036e-009    0               2.60574         0               -120.104        0               1.5469e-009     0               2.60574         0               -121.627        0               -1.02991        0               1.56804e-009    0              
  1.95e+009       0.0571673       0.0251577       0.898426        -0.314596       0.898408        -0.315067       0.0566039       0.0252573       1.58727e-009    0               2.45801         0               -123.761        0               1.54146e-009    0               2.45801         0               -126            0               -1.03142        0               1.56381e-009    0              
  2e+009          0.0582226       0.0250012       0.895106        -0.321417       0.894911        -0.322024       0.0577504       0.0252155       1.58399e-009    0               2.78076         0               -106.611        0               1.53631e-009    0               2.78076         0               -107.358        0               -1.03305        0               1.55953e-009    0              
  2.05e+009       0.0594788       0.0247758       0.891623        -0.328438       0.891423        -0.328898       0.0587889       0.0250439       1.58139e-009    0               2.86447         0               -100.811        0               1.53132e-009    0               2.86447         0               -101.268        0               -1.03472        0               1.5556e-009     0              
  2.1e+009        0.0605381       0.0246547       0.888343        -0.335207       0.888198        -0.335823       0.0598614       0.0249003       1.57823e-009    0               2.61307         0               -107.835        0               1.52591e-009    0               2.61307         0               -108.263        0               -1.03628        0               1.55133e-009    0              
  2.15e+009       0.0615246       0.0244196       0.884775        -0.342111       0.884576        -0.342495       0.0609156       0.024741        1.57541e-009    0               2.83838         0               -96.8105        0               1.52091e-009    0               2.83838         0               -96.8553        0               -1.03807        0               1.54736e-009    0              
  2.2e+009        0.062535        0.0241963       0.881335        -0.348821       0.881103        -0.349372       0.0618251       0.0245319       1.57263e-009    0               2.69612         0               -99.4973        0               1.51574e-009    0               2.69612         0               -99.5149        0               -1.03978        0               1.5433e-009     0              
  2.25e+009       0.0635666       0.0240642       0.877653        -0.35551        0.877607        -0.35616        0.0629231       0.0241749       1.57e-009       0               3.00921         0               -87.064         0               1.51074e-009    0               3.00921         0               -88.7949        0               -1.04144        0               1.53957e-009    0              
  2.3e+009        0.0645752       0.0236797       0.874187        -0.362202       0.873977        -0.362717       0.0638804       0.0240274       1.5672e-009     0               2.89522         0               -88.4546        0               1.50559e-009    0               2.89522         0               -88.7349        0               -1.04333        0               1.53543e-009    0              
  2.35e+009       0.0657329       0.0234177       0.87067         -0.36904        0.870368        -0.369436       0.0649465       0.0238283       1.56559e-009    0               2.64176         0               -94.7458        0               1.50147e-009    0               2.64176         0               -95.0016        0               -1.04529        0               1.53243e-009    0              
