! TOUCHSTONE file generated by Touchstone Python Converter
! Date and time: Sep 20 2015 15:48:33
# GHZ S RI R 50
5.000000e-02            1.775590e-02      2.954330e-03      9.819740e-01     -1.034510e-02      9.822260e-01     -1.046660e-02      1.781450e-02      3.069740e-03
1.000000e-01            1.918270e-02      5.003270e-03      9.807570e-01     -1.949390e-02      9.809360e-01     -1.903830e-02      1.915580e-02      5.069560e-03
1.500000e-01            2.021630e-02      6.585400e-03      9.794530e-01     -2.852400e-02      9.794390e-01     -2.807890e-02      2.032330e-02      6.674290e-03
2.000000e-01            2.122860e-02      7.727440e-03      9.783530e-01     -3.736130e-02      9.783580e-01     -3.690890e-02      2.123000e-02      7.776600e-03
2.500000e-01            2.194280e-02      8.970990e-03      9.773720e-01     -4.617810e-02      9.773590e-01     -4.565960e-02      2.206860e-02      9.042890e-03
3.000000e-01            2.271050e-02      9.989620e-03      9.763370e-01     -5.496370e-02      9.763850e-01     -5.440320e-02      2.277020e-02      9.993070e-03
3.500000e-01            2.346260e-02      1.116350e-02      9.751260e-01     -6.370710e-02      9.751760e-01     -6.324880e-02      2.342050e-02      1.116170e-02
4.000000e-01            2.431030e-02      1.219250e-02      9.741600e-01     -7.227040e-02      9.740880e-01     -7.178380e-02      2.425430e-02      1.212620e-02
4.500000e-01            2.503240e-02      1.332520e-02      9.728000e-01     -8.086840e-02      9.726350e-01     -8.061690e-02      2.508170e-02      1.312680e-02
5.000000e-01            2.582240e-02      1.421420e-02      9.713260e-01     -8.953360e-02      9.713030e-01     -8.915230e-02      2.577790e-02      1.419420e-02
5.500000e-01            2.674020e-02      1.524140e-02      9.697740e-01     -9.827260e-02      9.698530e-01     -9.766360e-02      2.661800e-02      1.522960e-02
6.000000e-01            2.751390e-02      1.609600e-02      9.683830e-01     -1.066330e-01      9.683120e-01     -1.061280e-01      2.747910e-02      1.605410e-02
6.500000e-01            2.851820e-02      1.696620e-02      9.666350e-01     -1.152640e-01      9.667310e-01     -1.147680e-01      2.842280e-02      1.694700e-02
7.000000e-01            2.937430e-02      1.785850e-02      9.648270e-01     -1.235910e-01      9.649180e-01     -1.231150e-01      2.935210e-02      1.781370e-02
7.500000e-01            3.039430e-02      1.872710e-02      9.630130e-01     -1.319440e-01      9.630910e-01     -1.315480e-01      3.028970e-02      1.865760e-02
8.000000e-01            3.134100e-02      1.942500e-02      9.609940e-01     -1.402710e-01      9.611050e-01     -1.397810e-01      3.130570e-02      1.931950e-02
8.500000e-01            3.237050e-02      2.026990e-02      9.590460e-01     -1.484370e-01      9.590420e-01     -1.481740e-01      3.230430e-02      2.020320e-02
9.000000e-01            3.348940e-02      2.092010e-02      9.569740e-01     -1.566580e-01      9.569100e-01     -1.562540e-01      3.334050e-02      2.087340e-02
9.500000e-01            3.452290e-02      2.154370e-02      9.547740e-01     -1.647920e-01      9.547080e-01     -1.644160e-01      3.432950e-02      2.150690e-02
1.000000e+00            3.569860e-02      2.208580e-02      9.524190e-01     -1.729200e-01      9.526180e-01     -1.723730e-01      3.548640e-02      2.210650e-02
1.050000e+00            3.670120e-02      2.259950e-02      9.503000e-01     -1.809250e-01      9.502360e-01     -1.804830e-01      3.656140e-02      2.268380e-02
1.100000e+00            3.789970e-02      2.316140e-02      9.479060e-01     -1.888000e-01      9.477520e-01     -1.883980e-01      3.770910e-02      2.315220e-02
1.150000e+00            3.893540e-02      2.355340e-02      9.453210e-01     -1.967180e-01      9.451730e-01     -1.962800e-01      3.881420e-02      2.365930e-02
1.200000e+00            4.015060e-02      2.391960e-02      9.428500e-01     -2.045260e-01      9.427340e-01     -2.040920e-01      3.998410e-02      2.402370e-02
1.250000e+00            4.126750e-02      2.428760e-02      9.402680e-01     -2.122620e-01      9.403020e-01     -2.119640e-01      4.121540e-02      2.440040e-02
1.300000e+00            4.256580e-02      2.460810e-02      9.375400e-01     -2.200460e-01      9.376290e-01     -2.195910e-01      4.238490e-02      2.465860e-02
1.350000e+00            4.360950e-02      2.489890e-02      9.348100e-01     -2.276910e-01      9.348400e-01     -2.273060e-01      4.341910e-02      2.486530e-02
1.400000e+00            4.485420e-02      2.503130e-02      9.319940e-01     -2.352590e-01      9.320280e-01     -2.347160e-01      4.465420e-02      2.520520e-02
1.450000e+00            4.595780e-02      2.520190e-02      9.291680e-01     -2.428090e-01      9.292220e-01     -2.423480e-01      4.570980e-02      2.536610e-02
1.500000e+00            4.715260e-02      2.539820e-02      9.262890e-01     -2.503060e-01      9.263260e-01     -2.498320e-01      4.696370e-02      2.542460e-02
1.550000e+00            4.824590e-02      2.550710e-02      9.234620e-01     -2.576940e-01      9.233360e-01     -2.572030e-01      4.801740e-02      2.552010e-02
1.600000e+00            4.938130e-02      2.541880e-02      9.203460e-01     -2.649720e-01      9.204690e-01     -2.645630e-01      4.909660e-02      2.557120e-02
1.650000e+00            5.055470e-02      2.552930e-02      9.171760e-01     -2.723300e-01      9.173840e-01     -2.719130e-01      5.022210e-02      2.560660e-02
1.700000e+00            5.165170e-02      2.555680e-02      9.142770e-01     -2.795940e-01      9.143680e-01     -2.791830e-01      5.145750e-02      2.553970e-02
1.750000e+00            5.272970e-02      2.553880e-02      9.112290e-01     -2.866710e-01      9.112340e-01     -2.862540e-01      5.244310e-02      2.557670e-02
1.800000e+00            5.386270e-02      2.543410e-02      9.080030e-01     -2.939090e-01      9.079870e-01     -2.934530e-01      5.349660e-02      2.554410e-02
1.850000e+00            5.485200e-02      2.538620e-02      9.047890e-01     -3.010380e-01      9.048610e-01     -3.005130e-01      5.456560e-02      2.557460e-02
1.900000e+00            5.612190e-02      2.528800e-02      9.015810e-01     -3.079970e-01      9.017550e-01     -3.074190e-01      5.558880e-02      2.544220e-02
1.950000e+00            5.716730e-02      2.515770e-02      8.984080e-01     -3.150670e-01      8.984260e-01     -3.145960e-01      5.660390e-02      2.525730e-02
2.000000e+00            5.822260e-02      2.500120e-02      8.949110e-01     -3.220240e-01      8.951060e-01     -3.214170e-01      5.775040e-02      2.521550e-02
2.050000e+00            5.947880e-02      2.477580e-02      8.914230e-01     -3.288980e-01      8.916230e-01     -3.284380e-01      5.878890e-02      2.504390e-02
2.100000e+00            6.053810e-02      2.465470e-02      8.881980e-01     -3.358230e-01      8.883430e-01     -3.352070e-01      5.986140e-02      2.490030e-02
2.150000e+00            6.152460e-02      2.441960e-02      8.845760e-01     -3.424950e-01      8.847750e-01     -3.421110e-01      6.091560e-02      2.474100e-02
2.200000e+00            6.253500e-02      2.419630e-02      8.811030e-01     -3.493720e-01      8.813350e-01     -3.488210e-01      6.182510e-02      2.453190e-02
2.250000e+00            6.356660e-02      2.406420e-02      8.776070e-01     -3.561600e-01      8.776530e-01     -3.555100e-01      6.292310e-02      2.417490e-02
2.300000e+00            6.457520e-02      2.367970e-02      8.739770e-01     -3.627170e-01      8.741870e-01     -3.622020e-01      6.388040e-02      2.402740e-02
2.350000e+00            6.573290e-02      2.341770e-02      8.703680e-01     -3.694360e-01      8.706700e-01     -3.690400e-01      6.494650e-02      2.382830e-02
2.400000e+00            6.654630e-02      2.322070e-02      8.667580e-01     -3.758790e-01      8.670080e-01     -3.754450e-01      6.579580e-02      2.354720e-02
2.450000e+00            6.767730e-02      2.292370e-02      8.630230e-01     -3.824790e-01      8.630330e-01     -3.819500e-01      6.684530e-02      2.320030e-02
2.500000e+00            6.862140e-02      2.261880e-02      8.592870e-01     -3.889840e-01      8.594360e-01     -3.886310e-01      6.781440e-02      2.288250e-02
2.550000e+00            6.966960e-02      2.218620e-02      8.554030e-01     -3.955770e-01      8.556390e-01     -3.950330e-01      6.879620e-02      2.256800e-02
2.600000e+00            7.045840e-02      2.175150e-02      8.517360e-01     -4.019190e-01      8.518130e-01     -4.014890e-01      6.967830e-02      2.219050e-02
2.650000e+00            7.140040e-02      2.141720e-02      8.478730e-01     -4.082270e-01      8.480450e-01     -4.080040e-01      7.065810e-02      2.195920e-02
2.700000e+00            7.229270e-02      2.114080e-02      8.440560e-01     -4.146390e-01      8.441360e-01     -4.142420e-01      7.139150e-02      2.152380e-02
2.750000e+00            7.335920e-02      2.071070e-02      8.398340e-01     -4.211030e-01      8.402050e-01     -4.206070e-01      7.234970e-02      2.118960e-02
2.800000e+00            7.419380e-02      2.019390e-02      8.359470e-01     -4.274980e-01      8.362860e-01     -4.269500e-01      7.329790e-02      2.073950e-02
2.850000e+00            7.508800e-02      1.988000e-02      8.320050e-01     -4.336620e-01      8.323180e-01     -4.332860e-01      7.418610e-02      2.045400e-02
2.900000e+00            7.587010e-02      1.955590e-02      8.281210e-01     -4.397540e-01      8.283440e-01     -4.393990e-01      7.503350e-02      2.000220e-02
2.950000e+00            7.677290e-02      1.916060e-02      8.239120e-01     -4.458830e-01      8.241290e-01     -4.455310e-01      7.586020e-02      1.960340e-02
3.000000e+00            7.762450e-02      1.862000e-02      8.196920e-01     -4.519820e-01      8.198690e-01     -4.516750e-01      7.668630e-02      1.915320e-02
3.050000e+00            7.852270e-02      1.837210e-02      8.152700e-01     -4.579810e-01      8.155850e-01     -4.576670e-01      7.756350e-02      1.890130e-02
3.100000e+00            7.941650e-02      1.782370e-02      8.113370e-01     -4.641200e-01      8.116080e-01     -4.636440e-01      7.853020e-02      1.850270e-02
3.150000e+00            8.030520e-02      1.754230e-02      8.073230e-01     -4.701220e-01      8.074180e-01     -4.696890e-01      7.922650e-02      1.809430e-02
3.200000e+00            8.106480e-02      1.702250e-02      8.029080e-01     -4.758100e-01      8.030050e-01     -4.755950e-01      8.020650e-02      1.774950e-02
3.250000e+00            8.194030e-02      1.671070e-02      7.982940e-01     -4.818800e-01      7.987820e-01     -4.816090e-01      8.094440e-02      1.731640e-02
3.300000e+00            8.287800e-02      1.618360e-02      7.942130e-01     -4.878480e-01      7.943410e-01     -4.871870e-01      8.188780e-02      1.684160e-02
3.350000e+00            8.357790e-02      1.591030e-02      7.900280e-01     -4.932720e-01      7.900120e-01     -4.932440e-01      8.265060e-02      1.660670e-02
3.400000e+00            8.455660e-02      1.538080e-02      7.854460e-01     -4.991490e-01      7.858590e-01     -4.988200e-01      8.345670e-02      1.611090e-02
3.450000e+00            8.535860e-02      1.511020e-02      7.810510e-01     -5.051380e-01      7.811330e-01     -5.044570e-01      8.432060e-02      1.582460e-02
3.500000e+00            8.624810e-02      1.445280e-02      7.765470e-01     -5.106750e-01      7.767500e-01     -5.103280e-01      8.519370e-02      1.528490e-02
3.550000e+00            8.710360e-02      1.424600e-02      7.721810e-01     -5.163880e-01      7.723320e-01     -5.162590e-01      8.589520e-02      1.504110e-02
3.600000e+00            8.789310e-02      1.371050e-02      7.679590e-01     -5.220430e-01      7.679520e-01     -5.214710e-01      8.675960e-02      1.454710e-02
3.650000e+00            8.879260e-02      1.345850e-02      7.633150e-01     -5.277630e-01      7.630500e-01     -5.273210e-01      8.759530e-02      1.431160e-02
3.700000e+00            8.967060e-02      1.265680e-02      7.583120e-01     -5.333270e-01      7.586300e-01     -5.326430e-01      8.837710e-02      1.382050e-02
3.750000e+00            9.053670e-02      1.244050e-02      7.537580e-01     -5.389030e-01      7.539430e-01     -5.382590e-01      8.931520e-02      1.339980e-02
3.800000e+00            9.143880e-02      1.181060e-02      7.494450e-01     -5.444040e-01      7.493880e-01     -5.439390e-01      9.011090e-02      1.316140e-02
3.850000e+00            9.224930e-02      1.158250e-02      7.444130e-01     -5.499770e-01      7.445780e-01     -5.495980e-01      9.095390e-02      1.271890e-02
3.900000e+00            9.315300e-02      1.100220e-02      7.396050e-01     -5.555070e-01      7.400360e-01     -5.546540e-01      9.167500e-02      1.240910e-02
3.950000e+00            9.400810e-02      1.060580e-02      7.344830e-01     -5.608760e-01      7.345740e-01     -5.601400e-01      9.250220e-02      1.186450e-02
4.000000e+00            9.490490e-02      1.009060e-02      7.299230e-01     -5.662490e-01      7.303390e-01     -5.657500e-01      9.334900e-02      1.148240e-02
4.050000e+00            9.552450e-02      9.799010e-03      7.248510e-01     -5.712380e-01      7.253910e-01     -5.709500e-01      9.389520e-02      1.105080e-02
4.100000e+00            9.642610e-02      9.388420e-03      7.200340e-01     -5.769620e-01      7.204410e-01     -5.763870e-01      9.492410e-02      1.070450e-02
4.150000e+00            9.710640e-02      8.845630e-03      7.148090e-01     -5.816170e-01      7.150570e-01     -5.816860e-01      9.578900e-02      1.019170e-02
4.200000e+00            9.820900e-02      8.489350e-03      7.097590e-01     -5.869840e-01      7.103820e-01     -5.867370e-01      9.666920e-02      9.953760e-03
4.250000e+00            9.898070e-02      8.119400e-03      7.048190e-01     -5.919310e-01      7.049430e-01     -5.914830e-01      9.737170e-02      9.420260e-03
4.300000e+00            9.983680e-02      7.609300e-03      6.999400e-01     -5.972220e-01      7.002270e-01     -5.970770e-01      9.827160e-02      9.087920e-03
4.350000e+00            1.007250e-01      7.187930e-03      6.948430e-01     -6.021510e-01      6.953310e-01     -6.016240e-01      9.911000e-02      8.697550e-03
4.400000e+00            1.015490e-01      6.889060e-03      6.897170e-01     -6.072530e-01      6.899450e-01     -6.067520e-01      9.992510e-02      8.443810e-03
4.450000e+00            1.025490e-01      6.338690e-03      6.846300e-01     -6.115820e-01      6.850030e-01     -6.118250e-01      1.008220e-01      7.943100e-03
4.500000e+00            1.035590e-01      5.802660e-03      6.793740e-01     -6.169000e-01      6.796250e-01     -6.164950e-01      1.017140e-01      7.562030e-03
4.550000e+00            1.042220e-01      5.501980e-03      6.744690e-01     -6.218550e-01      6.743750e-01     -6.210920e-01      1.026330e-01      7.089570e-03
4.600000e+00            1.052430e-01      4.979440e-03      6.686700e-01     -6.268200e-01      6.692250e-01     -6.261480e-01      1.034170e-01      6.812880e-03
4.650000e+00            1.062080e-01      4.601800e-03      6.639650e-01     -6.319520e-01      6.643730e-01     -6.307900e-01      1.043270e-01      6.373790e-03
4.700000e+00            1.070460e-01      3.974580e-03      6.588710e-01     -6.359770e-01      6.590320e-01     -6.359840e-01      1.053270e-01      5.968530e-03
4.750000e+00            1.080150e-01      3.582580e-03      6.530980e-01     -6.411420e-01      6.536950e-01     -6.405440e-01      1.062470e-01      5.492210e-03
4.800000e+00            1.090260e-01      3.212430e-03      6.480400e-01     -6.461380e-01      6.481020e-01     -6.451870e-01      1.070690e-01      5.073500e-03
4.850000e+00            1.097920e-01      2.615330e-03      6.422510e-01     -6.502090e-01      6.425560e-01     -6.499030e-01      1.080310e-01      4.646440e-03
4.900000e+00            1.108510e-01      2.135560e-03      6.362120e-01     -6.550300e-01      6.375200e-01     -6.544280e-01      1.088080e-01      4.113040e-03
4.950000e+00            1.117020e-01      1.682030e-03      6.312950e-01     -6.596500e-01      6.315590e-01     -6.589480e-01      1.098510e-01      3.751370e-03
5.000000e+00            1.127010e-01      1.115940e-03      6.254550e-01     -6.642230e-01      6.262410e-01     -6.642410e-01      1.106350e-01      3.284950e-03
5.050000e+00            1.137690e-01      5.392500e-04      6.197820e-01     -6.690370e-01      6.205610e-01     -6.683920e-01      1.116960e-01      2.912140e-03
5.100000e+00            1.145730e-01      2.291100e-04      6.145480e-01     -6.728810e-01      6.146380e-01     -6.729890e-01      1.124030e-01      2.556090e-03
5.150000e+00            1.155290e-01     -4.730610e-04      6.083400e-01     -6.764100e-01      6.092250e-01     -6.769200e-01      1.134460e-01      2.191440e-03
5.200000e+00            1.165610e-01     -8.766330e-04      6.027750e-01     -6.813290e-01      6.030470e-01     -6.808250e-01      1.143510e-01      1.672670e-03
5.250000e+00            1.174450e-01     -1.427620e-03      5.972170e-01     -6.852470e-01      5.974410e-01     -6.854190e-01      1.154020e-01      1.367430e-03
5.300000e+00            1.184290e-01     -1.889960e-03      5.911700e-01     -6.900410e-01      5.920770e-01     -6.895700e-01      1.161870e-01      7.928210e-04
5.350000e+00            1.192840e-01     -2.203330e-03      5.860010e-01     -6.936470e-01      5.858670e-01     -6.936290e-01      1.172340e-01      5.540870e-04
5.400000e+00            1.201990e-01     -2.730540e-03      5.799750e-01     -6.973170e-01      5.802080e-01     -6.977250e-01      1.183910e-01      1.659600e-05
5.450000e+00            1.213340e-01     -3.170990e-03      5.745490e-01     -7.019790e-01      5.743300e-01     -7.011540e-01      1.192720e-01     -3.562450e-04
5.500000e+00            1.223380e-01     -3.797300e-03      5.688580e-01     -7.059360e-01      5.684240e-01     -7.054780e-01      1.203020e-01     -8.565130e-04
5.550000e+00            1.234360e-01     -4.115430e-03      5.629010e-01     -7.098440e-01      5.636970e-01     -7.094880e-01      1.215010e-01     -1.164310e-03
5.600000e+00            1.245390e-01     -4.931490e-03      5.569260e-01     -7.132540e-01      5.576460e-01     -7.124970e-01      1.224840e-01     -1.759900e-03
5.650000e+00            1.253770e-01     -5.278270e-03      5.509380e-01     -7.170740e-01      5.512950e-01     -7.172620e-01      1.236400e-01     -2.119630e-03
5.700000e+00            1.268540e-01     -6.020790e-03      5.453250e-01     -7.215920e-01      5.459720e-01     -7.209900e-01      1.247860e-01     -2.764520e-03
5.750000e+00            1.278310e-01     -6.372340e-03      5.394600e-01     -7.257470e-01      5.390380e-01     -7.248260e-01      1.257790e-01     -3.242650e-03
5.800000e+00            1.291060e-01     -7.108910e-03      5.335210e-01     -7.291430e-01      5.339470e-01     -7.290440e-01      1.270460e-01     -3.707480e-03
5.850000e+00            1.301010e-01     -7.377070e-03      5.276180e-01     -7.324700e-01      5.282050e-01     -7.319260e-01      1.281380e-01     -3.925700e-03
5.900000e+00            1.312350e-01     -8.074250e-03      5.216990e-01     -7.359150e-01      5.219060e-01     -7.360020e-01      1.292610e-01     -4.498260e-03
5.950000e+00            1.322300e-01     -8.348210e-03      5.150810e-01     -7.399570e-01      5.153760e-01     -7.402410e-01      1.303910e-01     -4.886880e-03
6.000000e+00            1.336990e-01     -9.209710e-03      5.091100e-01     -7.440720e-01      5.094540e-01     -7.437340e-01      1.316140e-01     -5.455280e-03
6.050000e+00            1.345700e-01     -9.578550e-03      5.023830e-01     -7.468030e-01      5.026260e-01     -7.469750e-01      1.328350e-01     -5.984500e-03
6.100000e+00            1.360480e-01     -1.019460e-02      4.964310e-01     -7.507300e-01      4.968660e-01     -7.504290e-01      1.341570e-01     -6.414040e-03
